! Created with skrf (http://scikit-rf.org).
# GHz S RI R 50.0 
!freq ReS11 ImS11 ReS21 ImS21 ReS12 ImS12 ReS22 ImS22
500000000.0 0.1973922699689865 0.9085671305656433 0.0022368335630744696 -0.0015634172596037388 0.0022368335630744696 -0.0015634172596037388 1.0 0.0
520000000.0 0.2515847980976105 0.8396899700164795 0.0015698564238846302 -0.0017396456096321344 0.0015698564238846302 -0.0017396456096321344 1.0 0.0
540000000.0 0.3048623204231262 0.7709721326828003 0.000901291030459106 -0.0019095886964350939 0.000901291030459106 -0.0019095886964350939 1.0 0.0
560000000.0 0.3563099205493927 0.7025729417800903 0.00022954937594477087 -0.002066961256787181 0.00022954937594477087 -0.002066961256787181 1.0 0.0
580000000.0 0.4050125479698181 0.6346518397331238 -0.00044695677934214473 -0.002205478260293603 -0.00044695677934214473 -0.002205478260293603 1.0 0.0
600000000.0 0.4500553011894226 0.5673680901527405 -0.001129815587773919 -0.00231885421089828 -0.001129815587773919 -0.00231885421089828 1.0 0.0
620000000.0 0.4905231297016144 0.500881016254425 -0.0018206151435151696 -0.00240080407820642 -0.0018206151435151696 -0.00240080407820642 1.0 0.0
640000000.0 0.5255010724067688 0.4353499710559845 -0.002520943759009242 -0.002445042598992586 -0.002520943759009242 -0.002445042598992586 1.0 0.0
660000000.0 0.5540741682052612 0.37093430757522583 -0.003232389222830534 -0.0024452845100313425 -0.003232389222830534 -0.0024452845100313425 1.0 0.0
680000000.0 0.575327455997467 0.30779340863227844 -0.003956540022045374 -0.002395244548097253 -0.003956540022045374 -0.002395244548097253 1.0 0.0
700000000.0 0.5883458852767944 0.24608653783798218 -0.004694984294474125 -0.0022886376827955246 -0.004694984294474125 -0.0022886376827955246 1.0 0.0
720000000.0 0.5922145843505859 0.18597307801246643 -0.005449310410767794 -0.002119178418070078 -0.005449310410767794 -0.002119178418070078 1.0 0.0
740000000.0 0.586018443107605 0.12761236727237701 -0.006221105810254812 -0.0018805814906954765 -0.006221105810254812 -0.0018805814906954765 1.0 0.0
760000000.0 0.5688925981521606 0.07117123901844025 -0.007011622190475464 -0.0015668823616579175 -0.007011622190475464 -0.0015668823616579175 1.0 0.0
780000000.0 0.5411218404769897 0.016988951712846756 -0.007814349606633186 -0.0011794843012467027 -0.007814349606633186 -0.0011794843012467027 1.0 0.0
800000000.0 0.5041409134864807 -0.03442278131842613 -0.008615018799901009 -0.0007271597278304398 -0.008615018799901009 -0.0007271597278304398 1.0 0.0
820000000.0 0.45943453907966614 -0.08254477381706238 -0.009399022907018661 -0.00021900086721871048 -0.009399022907018661 -0.00021900086721871048 1.0 0.0
840000000.0 0.4084874391555786 -0.12685781717300415 -0.010151755064725876 0.00033589976374059916 -0.010151755064725876 0.00033589976374059916 1.0 0.0
860000000.0 0.35278433561325073 -0.1668427288532257 -0.010858609341084957 0.0009284496773034334 -0.010858609341084957 0.0009284496773034334 1.0 0.0
880000000.0 0.2938099205493927 -0.201980322599411 -0.011504977941513062 0.0015495563857257366 -0.011504977941513062 0.0015495563857257366 1.0 0.0
900000000.0 0.2330489456653595 -0.23175136744976044 -0.012076254934072495 0.0021901275031268597 -0.012076254934072495 0.0021901275031268597 1.0 0.0
920000000.0 0.17198610305786133 -0.25563669204711914 -0.012557833455502987 0.0028410705272108316 -0.012557833455502987 0.0028410705272108316 1.0 0.0
940000000.0 0.11210611462593079 -0.2731170952320099 -0.012935105711221695 0.0034932931885123253 -0.012935105711221695 0.0034932931885123253 1.0 0.0
960000000.0 0.05489370599389076 -0.28367337584495544 -0.013193465769290924 0.004137702751904726 -0.013193465769290924 0.004137702751904726 1.0 0.0
980000000.0 0.0018335893983021379 -0.28678634762763977 -0.01331830769777298 0.004765206947922707 -0.01331830769777298 0.004765206947922707 1.0 0.0
1000000000.0 -0.045589517802000046 -0.28193679451942444 -0.013295022770762444 0.005366712808609009 -0.013295022770762444 0.005366712808609009 1.0 0.0
1020000000.0 -0.08624423295259476 -0.2688978910446167 -0.013115230947732925 0.0059338947758078575 -0.013115230947732925 0.0059338947758078575 1.0 0.0
1040000000.0 -0.12041252106428146 -0.24861206114292145 -0.012795452028512955 0.006461488548666239 -0.012795452028512955 0.006461488548666239 1.0 0.0
1060000000.0 -0.14872968196868896 -0.22231413424015045 -0.012358428910374641 0.006944998167455196 -0.012358428910374641 0.006944998167455196 1.0 0.0
1080000000.0 -0.17183101177215576 -0.1912388950586319 -0.011826908215880394 0.0073799253441393375 -0.011826908215880394 0.0073799253441393375 1.0 0.0
1100000000.0 -0.19035182893276215 -0.15662114322185516 -0.011223633773624897 0.007761773187667131 -0.011223633773624897 0.007761773187667131 1.0 0.0
1120000000.0 -0.20492742955684662 -0.11969569325447083 -0.010571351274847984 0.00808604434132576 -0.010571351274847984 0.00808604434132576 1.0 0.0
1140000000.0 -0.2161930948495865 -0.08169733732938766 -0.009892803616821766 0.00834824237972498 -0.009892803616821766 0.00834824237972498 1.0 0.0
1160000000.0 -0.22478413581848145 -0.043860871344804764 -0.00921073742210865 0.00854386854916811 -0.00921073742210865 0.00854386854916811 1.0 0.0
1180000000.0 -0.23133587837219238 -0.007421095855534077 -0.008547896519303322 0.008668427355587482 -0.008547896519303322 0.008668427355587482 1.0 0.0
1200000000.0 -0.2364835888147354 0.026387186720967293 -0.00792702566832304 0.00871741957962513 -0.00792702566832304 0.00871741957962513 1.0 0.0
1220000000.0 -0.24086257815361023 0.05632917582988739 -0.007370870094746351 0.008686350658535957 -0.007370870094746351 0.008686350658535957 1.0 0.0
1240000000.0 -0.24510815739631653 0.08117007464170456 -0.006902174558490515 0.008570720441639423 -0.006902174558490515 0.008570720441639423 1.0 0.0
1260000000.0 -0.2498372495174408 0.09972085058689117 -0.006542883347719908 0.008366369642317295 -0.006542883347719908 0.008366369642317295 1.0 0.0
1280000000.0 -0.25524431467056274 0.1118452325463295 -0.0062965527176856995 0.008076852187514305 -0.0062965527176856995 0.008076852187514305 1.0 0.0
1300000000.0 -0.2611013650894165 0.11845971643924713 -0.006148347165435553 0.0077134426683187485 -0.006148347165435553 0.0077134426683187485 1.0 0.0
1320000000.0 -0.2671619951725006 0.12052655965089798 -0.006082632578909397 0.00728774955496192 -0.006082632578909397 0.00728774955496192 1.0 0.0
1340000000.0 -0.2731798589229584 0.11900802701711655 -0.006083774846047163 0.006811382248997688 -0.006083774846047163 0.006811382248997688 1.0 0.0
1360000000.0 -0.2789085805416107 0.11486636847257614 -0.006136139389127493 0.006295949220657349 -0.006136139389127493 0.006295949220657349 1.0 0.0
1380000000.0 -0.2841017544269562 0.10906384885311127 -0.0062240916304290295 0.005753059405833483 -0.0062240916304290295 0.005753059405833483 1.0 0.0
1400000000.0 -0.28851303458213806 0.10256272554397583 -0.006331996992230415 0.0051943217404186726 -0.006331996992230415 0.0051943217404186726 1.0 0.0
1420000000.0 -0.2918960154056549 0.09632527083158493 -0.006444221828132868 0.004631345625966787 -0.006444221828132868 0.004631345625966787 1.0 0.0
1440000000.0 -0.29400435090065 0.09131373465061188 -0.0065451315604150295 0.004075739532709122 -0.0065451315604150295 0.004075739532709122 1.0 0.0
1460000000.0 -0.29459166526794434 0.08849038183689117 -0.006619091611355543 0.003539112163707614 -0.006619091611355543 0.003539112163707614 1.0 0.0
1480000000.0 -0.29341158270835876 0.08881746977567673 -0.006650467868894339 0.0030330729205161333 -0.006650467868894339 0.0030330729205161333 1.0 0.0
1500000000.0 -0.29021769762039185 0.09325725585222244 -0.006623625289648771 0.002569230506196618 -0.006623625289648771 0.002569230506196618 1.0 0.0
1520000000.0 -0.284822940826416 0.10249869525432587 -0.006527150049805641 0.0021565088536590338 -0.006527150049805641 0.0021565088536590338 1.0 0.0
1540000000.0 -0.277277410030365 0.11613748967647552 -0.006366506684571505 0.0017930903704836965 -0.006366506684571505 0.0017930903704836965 1.0 0.0
1560000000.0 -0.2676904797554016 0.1334960013628006 -0.006151379551738501 0.0014744726940989494 -0.006151379551738501 0.0014744726940989494 1.0 0.0
1580000000.0 -0.25617146492004395 0.15389664471149445 -0.005891452543437481 0.0011961532291024923 -0.005891452543437481 0.0011961532291024923 1.0 0.0
1600000000.0 -0.2428298145532608 0.17666178941726685 -0.005596410948783159 0.0009536296711303294 -0.005596410948783159 0.0009536296711303294 1.0 0.0
1620000000.0 -0.22777484357357025 0.20111380517482758 -0.005275938659906387 0.0007423993665724993 -0.005275938659906387 0.0007423993665724993 1.0 0.0
1640000000.0 -0.21111592650413513 0.22657510638237 -0.0049397205002605915 0.0005579598364420235 -0.0049397205002605915 0.0005579598364420235 1.0 0.0
1660000000.0 -0.19296245276927948 0.2523680627346039 -0.0045974403619766235 0.00039580860175192356 -0.0045974403619766235 0.00039580860175192356 1.0 0.0
1680000000.0 -0.17342379689216614 0.277815043926239 -0.00425878306850791 0.0002514431544113904 -0.00425878306850791 0.0002514431544113904 1.0 0.0
1700000000.0 -0.15260930359363556 0.30223846435546875 -0.003933432977646589 0.00012036099360557273 -0.003933432977646589 0.00012036099360557273 1.0 0.0
1720000000.0 -0.13062836229801178 0.32496070861816406 -0.003631074447184801 -1.9403885289648315e-06 -0.003631074447184801 -1.9403885289648315e-06 1.0 0.0
1740000000.0 -0.10759033262729645 0.34530413150787354 -0.003361392067745328 -0.00011996349348919466 -0.003361392067745328 -0.00011996349348919466 1.0 0.0
1760000000.0 -0.08360674977302551 0.36260679364204407 -0.0031337908003479242 -0.00023804914962965995 -0.0031337908003479242 -0.00023804914962965995 1.0 0.0
1780000000.0 -0.058838773518800735 0.3765668570995331 -0.0029512522742152214 -0.00035681939334608614 -0.0029512522742152214 -0.00035681939334608614 1.0 0.0
1800000000.0 -0.03349719196557999 0.3872426450252533 -0.002810334088280797 -0.0004731775843538344 -0.002810334088280797 -0.0004731775843538344 1.0 0.0
1820000000.0 -0.007794949691742659 0.3947080969810486 -0.0027073149103671312 -0.000583865272346884 -0.0027073149103671312 -0.000583865272346884 1.0 0.0
1840000000.0 0.01805500127375126 0.3990372121334076 -0.0026384731754660606 -0.0006856241961941123 -0.0026384731754660606 -0.0006856241961941123 1.0 0.0
1860000000.0 0.0438397154211998 0.4003039002418518 -0.0026000873185694218 -0.0007751958910375834 -0.0026000873185694218 -0.0007751958910375834 1.0 0.0
1880000000.0 0.06934624910354614 0.3985821306705475 -0.002588435774669051 -0.0008493220084346831 -0.002588435774669051 -0.0008493220084346831 1.0 0.0
1900000000.0 0.09436164051294327 0.3939459025859833 -0.0025997969787567854 -0.0009047441417351365 -0.0025997969787567854 -0.0009047441417351365 1.0 0.0
1920000000.0 0.11867295950651169 0.38646915555000305 -0.0026304498314857483 -0.0009382040007039905 -0.0026304498314857483 -0.0009382040007039905 1.0 0.0
1940000000.0 0.14206725358963013 0.3762258291244507 -0.002676672302186489 -0.000946443120483309 -0.002676672302186489 -0.000946443120483309 1.0 0.0
1960000000.0 0.1643315553665161 0.3632899224758148 -0.002734743058681488 -0.0009262032108381391 -0.002734743058681488 -0.0009262032108381391 1.0 0.0
1980000000.0 0.18525294959545135 0.34773537516593933 -0.0028009407687932253 -0.0008742258651182055 -0.0028009407687932253 -0.0008742258651182055 1.0 0.0
2000000000.0 0.20461846888065338 0.3296361565589905 -0.0028715436346828938 -0.0007872526766732335 -0.0028715436346828938 -0.0007872526766732335 1.0 0.0
2020000000.0 0.22225897014141083 0.3091113269329071 -0.0029434228781610727 -0.0006635785684920847 -0.0029434228781610727 -0.0006635785684920847 1.0 0.0
2040000000.0 0.2381804883480072 0.2864605188369751 -0.0030158190056681633 -0.00050771125825122 -0.0030158190056681633 -0.00050771125825122 1.0 0.0
2060000000.0 0.2524328827857971 0.26202842593193054 -0.0030885657761245966 -0.0003257118514738977 -0.0030885657761245966 -0.0003257118514738977 1.0 0.0
2080000000.0 0.2650659680366516 0.2361597865819931 -0.003161496017128229 -0.00012364135181996971 -0.003161496017128229 -0.00012364135181996971 1.0 0.0
2100000000.0 0.2761296331882477 0.20919930934906006 -0.0032344432547688484 9.243920067092404e-05 -0.0032344432547688484 9.243920067092404e-05 1.0 0.0
2120000000.0 0.28567370772361755 0.18149171769618988 -0.003307241015136242 0.00031646876595914364 -0.003307241015136242 0.00031646876595914364 1.0 0.0
2140000000.0000002 0.29374799132347107 0.15338172018527985 -0.00337972235865891 0.0005423863767646253 -0.00337972235865891 0.0005423863767646253 1.0 0.0
2160000000.0 0.30040237307548523 0.12521405518054962 -0.0034517203457653522 0.0007641308475285769 -0.0034517203457653522 0.0007641308475285769 1.0 0.0
2180000000.0 0.30568671226501465 0.09733343869447708 -0.003523068968206644 0.0009756413055583835 -0.003523068968206644 0.0009756413055583835 1.0 0.0
2200000000.0 0.30965080857276917 0.0700845792889595 -0.003593600820749998 0.0011708566453307867 -0.003593600820749998 0.0011708566453307867 1.0 0.0
2220000000.0 0.3123445212841034 0.043812211602926254 -0.0036631496623158455 0.0013437159359455109 -0.0036631496623158455 0.0013437159359455109 1.0 0.0
2240000000.0 0.31381767988204956 0.01886104606091976 -0.0037315485533326864 0.0014881578972563148 -0.0037315485533326864 0.0014881578972563148 1.0 0.0
2260000000.0 0.31411856412887573 -0.004435613285750151 -0.0037986384704709053 0.0015983080957084894 -0.0037986384704709053 0.0015983080957084894 1.0 0.0
2280000000.0 0.3132586181163788 -0.026007086038589478 -0.003864431055262685 0.0016725794412195683 -0.003864431055262685 0.0016725794412195683 1.0 0.0
2300000000.0 0.3112125098705292 -0.046045318245887756 -0.003929109312593937 0.0017136720707640052 -0.003929109312593937 0.0017136720707640052 1.0 0.0
2320000000.0 0.3079532980918884 -0.06475367397069931 -0.003992863930761814 0.0017244728514924645 -0.003992863930761814 0.0017244728514924645 1.0 0.0
2340000000.0 0.30345410108566284 -0.08233551681041718 -0.004055885132402182 0.001707868417724967 -0.004055885132402182 0.001707868417724967 1.0 0.0
2360000000.0 0.29768794775009155 -0.09899421036243439 -0.004118363372981548 0.001666745636612177 -0.004118363372981548 0.001666745636612177 1.0 0.0
2380000000.0 0.29062792658805847 -0.11493311822414398 -0.00418048957362771 0.001603991142474115 -0.00418048957362771 0.001603991142474115 1.0 0.0
2400000000.0 0.2822471559047699 -0.1303555965423584 -0.004242453258484602 0.0015224915696308017 -0.004242453258484602 0.0015224915696308017 1.0 0.0
2420000000.0 0.2725186347961426 -0.14546503126621246 -0.004304445814341307 0.0014251337852329016 -0.004304445814341307 0.0014251337852329016 1.0 0.0
2440000000.0 0.2614154815673828 -0.16046474874019623 -0.004366656765341759 0.001314804540015757 -0.004366656765341759 0.001314804540015757 1.0 0.0
2460000000.0 0.2489107847213745 -0.1755581498146057 -0.004429277498275042 0.0011943904682993889 -0.004429277498275042 0.0011943904682993889 1.0 0.0
2480000000.0 0.234977588057518 -0.19094856083393097 -0.0044924975372850895 0.0010667783208191395 -0.0044924975372850895 0.0010667783208191395 1.0 0.0
2500000000.0 0.2195889800786972 -0.20683938264846802 -0.004556507803499699 0.0009348549065180123 -0.004556507803499699 0.0009348549065180123 1.0 0.0
2520000000.0 0.20274706184864044 -0.22334346175193787 -0.004621293395757675 0.0008008579025045037 -0.004621293395757675 0.0008008579025045037 1.0 0.0
2540000000.0 0.18457002937793732 -0.24021169543266296 -0.00468601705506444 0.0006644292734563351 -0.00468601705506444 0.0006644292734563351 1.0 0.0
2560000000.0 0.16520513594150543 -0.25710445642471313 -0.00474963616579771 0.0005245619686320424 -0.00474963616579771 0.0005245619686320424 1.0 0.0
2580000000.0 0.1447995901107788 -0.2736821472644806 -0.004811108112335205 0.0003802489081863314 -0.004811108112335205 0.0003802489081863314 1.0 0.0
2600000000.0 0.12350065261125565 -0.28960520029067993 -0.004869389813393354 0.00023048307048156857 -0.004869389813393354 0.00023048307048156857 1.0 0.0
2620000000.0 0.10145554691553116 -0.3045339286327362 -0.004923439584672451 7.425741932820529e-05 -0.004923439584672451 7.425741932820529e-05 1.0 0.0
2640000000.0 0.07881150394678116 -0.3181287944316864 -0.004972213879227638 -8.94351105671376e-05 -0.004972213879227638 -8.94351105671376e-05 1.0 0.0
2660000000.0 0.055715758353471756 -0.33005017042160034 -0.005014670547097921 -0.00026160155539400876 -0.005014670547097921 -0.00026160155539400876 1.0 0.0
2680000000.0 0.03231554478406906 -0.33995842933654785 -0.005049766972661018 -0.00044324895134195685 -0.005049766972661018 -0.00044324895134195685 1.0 0.0
2700000000.0 0.008758097887039185 -0.34751397371292114 -0.005076460540294647 -0.0006353843491524458 -0.005076460540294647 -0.0006353843491524458 1.0 0.0
2720000000.0 -0.014809347689151764 -0.3523772060871124 -0.005093708634376526 -0.0008390148286707699 -0.005093708634376526 -0.0008390148286707699 1.0 0.0
2740000000.0 -0.03823956102132797 -0.35420849919319153 -0.005100468639284372 -0.0010551473824307323 -0.005100468639284372 -0.0010551473824307323 1.0 0.0
2760000000.0 -0.06138668954372406 -0.35268357396125793 -0.0050957114435732365 -0.0012846955796703696 -0.0050957114435732365 -0.0012846955796703696 1.0 0.0
2780000000.0 -0.08413675427436829 -0.34782955050468445 -0.0050787306390702724 -0.0015264201210811734 -0.0050787306390702724 -0.0015264201210811734 1.0 0.0
2800000000.0 -0.10640764981508255 -0.3400251567363739 -0.005049139726907015 -0.001776929828338325 -0.005049139726907015 -0.001776929828338325 1.0 0.0
2820000000.0 -0.12811864912509918 -0.329664409160614 -0.005006566643714905 -0.002032739343121648 -0.005006566643714905 -0.002032739343121648 1.0 0.0
2840000000.0 -0.1491890251636505 -0.31714120507240295 -0.004950640257447958 -0.0022903636563569307 -0.004950640257447958 -0.0022903636563569307 1.0 0.0
2860000000.0 -0.16953805088996887 -0.30284959077835083 -0.004880987573415041 -0.0025463176425546408 -0.004880987573415041 -0.0025463176425546408 1.0 0.0
2880000000.0 -0.18908502161502838 -0.287183552980423 -0.004797236993908882 -0.002797116059809923 -0.004797236993908882 -0.002797116059809923 1.0 0.0
2900000000.0 -0.2077491730451584 -0.27053698897361755 -0.00469901692122221 -0.0030392741318792105 -0.00469901692122221 -0.0030392741318792105 1.0 0.0
2920000000.0 -0.2254498302936554 -0.25330397486686707 -0.0045859552919864655 -0.0032693063840270042 -0.0045859552919864655 -0.0032693063840270042 1.0 0.0
2940000000.0 -0.24210622906684875 -0.23587842285633087 -0.0044576795771718025 -0.0034837278071790934 -0.0044576795771718025 -0.0034837278071790934 1.0 0.0
2960000000.0 -0.2576376497745514 -0.2186543494462967 -0.004313818644732237 -0.0036790533922612667 -0.004313818644732237 -0.0036790533922612667 1.0 0.0
2980000000.0 -0.2719633877277374 -0.20202571153640747 -0.004153999965637922 -0.0038517978973686695 -0.004153999965637922 -0.0038517978973686695 1.0 0.0
3000000000.0 -0.2850027084350586 -0.18638649582862854 -0.0039778524078428745 -0.003998476080596447 -0.0039778524078428745 -0.003998476080596447 1.0 0.0
3020000000.0 -0.29669779539108276 -0.17201916873455048 -0.003785373643040657 -0.004116624593734741 -0.003785373643040657 -0.004116624593734741 1.0 0.0
3040000000.0 -0.3070824444293976 -0.15876007080078125 -0.0035780470352619886 -0.004207865335047245 -0.0035780470352619886 -0.004207865335047245 1.0 0.0
3060000000.0 -0.31621336936950684 -0.14633406698703766 -0.003357725217938423 -0.00427484093233943 -0.003357725217938423 -0.00427484093233943 1.0 0.0
3080000000.0 -0.3241473138332367 -0.13446596264839172 -0.003126261755824089 -0.004320194479078054 -0.003126261755824089 -0.004320194479078054 1.0 0.0
3100000000.0 -0.33094099164009094 -0.12288063019514084 -0.002885509515181184 -0.004346570000052452 -0.002885509515181184 -0.004346570000052452 1.0 0.0
3120000000.0 -0.336651086807251 -0.11130288243293762 -0.0026373218279331923 -0.004356610123068094 -0.0026373218279331923 -0.004356610123068094 1.0 0.0
