! Created with skrf (http://scikit-rf.org).
# GHz S RI R 50.0 
!freq ReS11 ImS11 ReS12 ImS12 ReS13 ImS13
! ReS21 ImS21 ReS22 ImS22 ReS23 ImS23
! ReS31 ImS31 ReS32 ImS32 ReS33 ImS33
!
0.5 0.1973922699689865 0.9085671305656433 0.0022368335630744696 -0.0015634172596037388 -0.7700543999671936 -0.07205353677272797
 0.0022368335630744696 -0.0015634172596037388 1.0 0.0 1.0 0.0
 -0.7700543999671936 -0.07205353677272797 1.0 0.0 1.0 0.0
0.52 0.2515847980976105 0.8396899700164795 0.0015698564238846302 -0.0017396456096321344 -0.7899213433265686 -0.055702392011880875
 0.0015698564238846302 -0.0017396456096321344 1.0 0.0 1.0 0.0
 -0.7899213433265686 -0.055702392011880875 1.0 0.0 1.0 0.0
0.54 0.3048623204231262 0.7709721326828003 0.000901291030459106 -0.0019095886964350939 -0.8096163272857666 -0.039232153445482254
 0.000901291030459106 -0.0019095886964350939 1.0 0.0 1.0 0.0
 -0.8096163272857666 -0.039232153445482254 1.0 0.0 1.0 0.0
0.56 0.3563099205493927 0.7025729417800903 0.00022954937594477087 -0.002066961256787181 -0.8289675116539001 -0.02252371981739998
 0.00022954937594477087 -0.002066961256787181 1.0 0.0 1.0 0.0
 -0.8289675116539001 -0.02252371981739998 1.0 0.0 1.0 0.0
0.58 0.4050125479698181 0.6346518397331238 -0.00044695677934214473 -0.002205478260293603 -0.8478029370307922 -0.005457997787743807
 -0.00044695677934214473 -0.002205478260293603 1.0 0.0 1.0 0.0
 -0.8478029370307922 -0.005457997787743807 1.0 0.0 1.0 0.0
0.6 0.4500553011894226 0.5673680901527405 -0.001129815587773919 -0.00231885421089828 -0.8659507036209106 0.012084108777344227
 -0.001129815587773919 -0.00231885421089828 1.0 0.0 1.0 0.0
 -0.8659507036209106 0.012084108777344227 1.0 0.0 1.0 0.0
0.62 0.4905231297016144 0.500881016254425 -0.0018206151435151696 -0.00240080407820642 -0.8832389116287231 0.030221696943044662
 -0.0018206151435151696 -0.00240080407820642 1.0 0.0 1.0 0.0
 -0.8832389116287231 0.030221696943044662 1.0 0.0 1.0 0.0
0.64 0.5255010724067688 0.4353499710559845 -0.002520943759009242 -0.002445042598992586 -0.8994956612586975 0.04907386004924774
 -0.002520943759009242 -0.002445042598992586 1.0 0.0 1.0 0.0
 -0.8994956612586975 0.04907386004924774 1.0 0.0 1.0 0.0
0.66 0.5540741682052612 0.37093430757522583 -0.003232389222830534 -0.0024452845100313425 -0.914548933506012 0.06875970214605331
 -0.003232389222830534 -0.0024452845100313425 1.0 0.0 1.0 0.0
 -0.914548933506012 0.06875970214605331 1.0 0.0 1.0 0.0
0.68 0.575327455997467 0.30779340863227844 -0.003956540022045374 -0.002395244548097253 -0.9282269477844238 0.08939830958843231
 -0.003956540022045374 -0.002395244548097253 1.0 0.0 1.0 0.0
 -0.9282269477844238 0.08939830958843231 1.0 0.0 1.0 0.0
0.7 0.5883458852767944 0.24608653783798218 -0.004694984294474125 -0.0022886376827955246 -0.9403577446937561 0.11110877990722656
 -0.004694984294474125 -0.0022886376827955246 1.0 0.0 1.0 0.0
 -0.9403577446937561 0.11110877990722656 1.0 0.0 1.0 0.0
0.72 0.5922145843505859 0.18597307801246643 -0.005449310410767794 -0.002119178418070078 -0.9507694244384766 0.1340102255344391
 -0.005449310410767794 -0.002119178418070078 1.0 0.0 1.0 0.0
 -0.9507694244384766 0.1340102255344391 1.0 0.0 1.0 0.0
0.74 0.586018443107605 0.12761236727237701 -0.006221105810254812 -0.0018805814906954765 -0.9592900276184082 0.15822172164916992
 -0.006221105810254812 -0.0018805814906954765 1.0 0.0 1.0 0.0
 -0.9592900276184082 0.15822172164916992 1.0 0.0 1.0 0.0
0.76 0.5688925981521606 0.07117123901844025 -0.007011622190475464 -0.0015668823616579175 -0.9657520055770874 0.18385641276836395
 -0.007011622190475464 -0.0015668823616579175 1.0 0.0 1.0 0.0
 -0.9657520055770874 0.18385641276836395 1.0 0.0 1.0 0.0
0.78 0.5411218404769897 0.016988951712846756 -0.007814349606633186 -0.0011794843012467027 -0.9700884819030762 0.2108904868364334
 -0.007814349606633186 -0.0011794843012467027 1.0 0.0 1.0 0.0
 -0.9700884819030762 0.2108904868364334 1.0 0.0 1.0 0.0
0.8 0.5041409134864807 -0.03442278131842613 -0.008615018799901009 -0.0007271597278304398 -0.9723330140113831 0.23916319012641907
 -0.008615018799901009 -0.0007271597278304398 1.0 0.0 1.0 0.0
 -0.9723330140113831 0.23916319012641907 1.0 0.0 1.0 0.0
0.82 0.45943453907966614 -0.08254477381706238 -0.009399022907018661 -0.00021900086721871048 -0.97252357006073 0.26850777864456177
 -0.009399022907018661 -0.00021900086721871048 1.0 0.0 1.0 0.0
 -0.97252357006073 0.26850777864456177 1.0 0.0 1.0 0.0
0.84 0.4084874391555786 -0.12685781717300415 -0.010151755064725876 0.00033589976374059916 -0.9706982374191284 0.29875755310058594
 -0.010151755064725876 0.00033589976374059916 1.0 0.0 1.0 0.0
 -0.9706982374191284 0.29875755310058594 1.0 0.0 1.0 0.0
0.86 0.35278433561325073 -0.1668427288532257 -0.010858609341084957 0.0009284496773034334 -0.9668949246406555 0.3297457695007324
 -0.010858609341084957 0.0009284496773034334 1.0 0.0 1.0 0.0
 -0.9668949246406555 0.3297457695007324 1.0 0.0 1.0 0.0
0.88 0.2938099205493927 -0.201980322599411 -0.011504977941513062 0.0015495563857257366 -0.961151659488678 0.36130568385124207
 -0.011504977941513062 0.0015495563857257366 1.0 0.0 1.0 0.0
 -0.961151659488678 0.36130568385124207 1.0 0.0 1.0 0.0
0.9 0.2330489456653595 -0.23175136744976044 -0.012076254934072495 0.0021901275031268597 -0.9535064101219177 0.3932706415653229
 -0.012076254934072495 0.0021901275031268597 1.0 0.0 1.0 0.0
 -0.9535064101219177 0.3932706415653229 1.0 0.0 1.0 0.0
0.92 0.17198610305786133 -0.25563669204711914 -0.012557833455502987 0.0028410705272108316 -0.9439972639083862 0.4254738390445709
 -0.012557833455502987 0.0028410705272108316 1.0 0.0 1.0 0.0
 -0.9439972639083862 0.4254738390445709 1.0 0.0 1.0 0.0
0.94 0.11210611462593079 -0.2731170952320099 -0.012935105711221695 0.0034932931885123253 -0.9326621294021606 0.4577485918998718
 -0.012935105711221695 0.0034932931885123253 1.0 0.0 1.0 0.0
 -0.9326621294021606 0.4577485918998718 1.0 0.0 1.0 0.0
0.96 0.05489370599389076 -0.28367337584495544 -0.013193465769290924 0.004137702751904726 -0.9195389747619629 0.4899281859397888
 -0.013193465769290924 0.004137702751904726 1.0 0.0 1.0 0.0
 -0.9195389747619629 0.4899281859397888 1.0 0.0 1.0 0.0
0.98 0.0018335893983021379 -0.28678634762763977 -0.01331830769777298 0.004765206947922707 -0.9046658873558044 0.5218458771705627
 -0.01331830769777298 0.004765206947922707 1.0 0.0 1.0 0.0
 -0.9046658873558044 0.5218458771705627 1.0 0.0 1.0 0.0
1.0 -0.045589517802000046 -0.28193679451942444 -0.013295022770762444 0.005366712808609009 -0.8880807757377625 0.5533349514007568
 -0.013295022770762444 0.005366712808609009 1.0 0.0 1.0 0.0
 -0.8880807757377625 0.5533349514007568 1.0 0.0 1.0 0.0
1.02 -0.08624423295259476 -0.2688978910446167 -0.013115230947732925 0.0059338947758078575 -0.869875967502594 0.5842215418815613
 -0.013115230947732925 0.0059338947758078575 1.0 0.0 1.0 0.0
 -0.869875967502594 0.5842215418815613 1.0 0.0 1.0 0.0
1.04 -0.12041252106428146 -0.24861206114292145 -0.012795452028512955 0.006461488548666239 -0.8503611087799072 0.614302933216095
 -0.012795452028512955 0.006461488548666239 1.0 0.0 1.0 0.0
 -0.8503611087799072 0.614302933216095 1.0 0.0 1.0 0.0
1.06 -0.14872968196868896 -0.22231413424015045 -0.012358428910374641 0.006944998167455196 -0.8298999071121216 0.6433694362640381
 -0.012358428910374641 0.006944998167455196 1.0 0.0 1.0 0.0
 -0.8298999071121216 0.6433694362640381 1.0 0.0 1.0 0.0
1.08 -0.17183101177215576 -0.1912388950586319 -0.011826908215880394 0.0073799253441393375 -0.8088563680648804 0.6712111234664917
 -0.011826908215880394 0.0073799253441393375 1.0 0.0 1.0 0.0
 -0.8088563680648804 0.6712111234664917 1.0 0.0 1.0 0.0
1.1 -0.19035182893276215 -0.15662114322185516 -0.011223633773624897 0.007761773187667131 -0.7875942587852478 0.697618305683136
 -0.011223633773624897 0.007761773187667131 1.0 0.0 1.0 0.0
 -0.7875942587852478 0.697618305683136 1.0 0.0 1.0 0.0
1.12 -0.20492742955684662 -0.11969569325447083 -0.010571351274847984 0.00808604434132576 -0.7664775252342224 0.7223811149597168
 -0.010571351274847984 0.00808604434132576 1.0 0.0 1.0 0.0
 -0.7664775252342224 0.7223811149597168 1.0 0.0 1.0 0.0
1.14 -0.2161930948495865 -0.08169733732938766 -0.009892803616821766 0.00834824237972498 -0.7458699941635132 0.7452897429466248
 -0.009892803616821766 0.00834824237972498 1.0 0.0 1.0 0.0
 -0.7458699941635132 0.7452897429466248 1.0 0.0 1.0 0.0
1.16 -0.22478413581848145 -0.043860871344804764 -0.00921073742210865 0.00854386854916811 -0.7261354923248291 0.7661344408988953
 -0.00921073742210865 0.00854386854916811 1.0 0.0 1.0 0.0
 -0.7261354923248291 0.7661344408988953 1.0 0.0 1.0 0.0
1.18 -0.23133587837219238 -0.007421095855534077 -0.008547896519303322 0.008668427355587482 -0.7076379060745239 0.7847053408622742
 -0.008547896519303322 0.008668427355587482 1.0 0.0 1.0 0.0
 -0.7076379060745239 0.7847053408622742 1.0 0.0 1.0 0.0
1.2 -0.2364835888147354 0.026387186720967293 -0.00792702566832304 0.00871741957962513 -0.6907411813735962 0.8007926940917969
 -0.00792702566832304 0.00871741957962513 1.0 0.0 1.0 0.0
 -0.6907411813735962 0.8007926940917969 1.0 0.0 1.0 0.0
1.22 -0.24086257815361023 0.05632917582988739 -0.007370870094746351 0.008686350658535957 -0.6758090853691101 0.8141866326332092
 -0.007370870094746351 0.008686350658535957 1.0 0.0 1.0 0.0
 -0.6758090853691101 0.8141866326332092 1.0 0.0 1.0 0.0
1.24 -0.24510815739631653 0.08117007464170456 -0.006902174558490515 0.008570720441639423 -0.6632055044174194 0.8246774673461914
 -0.006902174558490515 0.008570720441639423 1.0 0.0 1.0 0.0
 -0.6632055044174194 0.8246774673461914 1.0 0.0 1.0 0.0
1.26 -0.2498372495174408 0.09972085058689117 -0.006542883347719908 0.008366369642317295 -0.6532768607139587 0.8320691585540771
 -0.006542883347719908 0.008366369642317295 1.0 0.0 1.0 0.0
 -0.6532768607139587 0.8320691585540771 1.0 0.0 1.0 0.0
1.28 -0.25524431467056274 0.1118452325463295 -0.0062965527176856995 0.008076852187514305 -0.6459673643112183 0.8364850282669067
 -0.0062965527176856995 0.008076852187514305 1.0 0.0 1.0 0.0
 -0.6459673643112183 0.8364850282669067 1.0 0.0 1.0 0.0
1.3 -0.2611013650894165 0.11845971643924713 -0.006148347165435553 0.0077134426683187485 -0.6408191919326782 0.8383675813674927
 -0.006148347165435553 0.0077134426683187485 1.0 0.0 1.0 0.0
 -0.6408191919326782 0.8383675813674927 1.0 0.0 1.0 0.0
1.32 -0.2671619951725006 0.12052655965089798 -0.006082632578909397 0.00728774955496192 -0.6373569369316101 0.8381731510162354
 -0.006082632578909397 0.00728774955496192 1.0 0.0 1.0 0.0
 -0.6373569369316101 0.8381731510162354 1.0 0.0 1.0 0.0
1.34 -0.2731798589229584 0.11900802701711655 -0.006083774846047163 0.006811382248997688 -0.635105311870575 0.8363581895828247
 -0.006083774846047163 0.006811382248997688 1.0 0.0 1.0 0.0
 -0.635105311870575 0.8363581895828247 1.0 0.0 1.0 0.0
1.36 -0.2789085805416107 0.11486636847257614 -0.006136139389127493 0.006295949220657349 -0.6335889101028442 0.8333789706230164
 -0.006136139389127493 0.006295949220657349 1.0 0.0 1.0 0.0
 -0.6335889101028442 0.8333789706230164 1.0 0.0 1.0 0.0
1.38 -0.2841017544269562 0.10906384885311127 -0.0062240916304290295 0.005753059405833483 -0.632332444190979 0.8296918869018555
 -0.0062240916304290295 0.005753059405833483 1.0 0.0 1.0 0.0
 -0.632332444190979 0.8296918869018555 1.0 0.0 1.0 0.0
1.4 -0.28851303458213806 0.10256272554397583 -0.006331996992230415 0.0051943217404186726 -0.6308605074882507 0.825753390789032
 -0.006331996992230415 0.0051943217404186726 1.0 0.0 1.0 0.0
 -0.6308605074882507 0.825753390789032 1.0 0.0 1.0 0.0
1.42 -0.2918960154056549 0.09632527083158493 -0.006444221828132868 0.004631345625966787 -0.6286977529525757 0.8220197558403015
 -0.006444221828132868 0.004631345625966787 1.0 0.0 1.0 0.0
 -0.6286977529525757 0.8220197558403015 1.0 0.0 1.0 0.0
1.44 -0.29400435090065 0.09131373465061188 -0.0065451315604150295 0.004075739532709122 -0.6253688335418701 0.8189473152160645
 -0.0065451315604150295 0.004075739532709122 1.0 0.0 1.0 0.0
 -0.6253688335418701 0.8189473152160645 1.0 0.0 1.0 0.0
1.46 -0.29459166526794434 0.08849038183689117 -0.006619091611355543 0.003539112163707614 -0.6203984618186951 0.8169925808906555
 -0.006619091611355543 0.003539112163707614 1.0 0.0 1.0 0.0
 -0.6203984618186951 0.8169925808906555 1.0 0.0 1.0 0.0
1.48 -0.29341158270835876 0.08881746977567673 -0.006650467868894339 0.0030330729205161333 -0.6133111715316772 0.8166118264198303
 -0.006650467868894339 0.0030330729205161333 1.0 0.0 1.0 0.0
 -0.6133111715316772 0.8166118264198303 1.0 0.0 1.0 0.0
1.5 -0.29021769762039185 0.09325725585222244 -0.006623625289648771 0.002569230506196618 -0.6036316752433777 0.8182613849639893
 -0.006623625289648771 0.002569230506196618 1.0 0.0 1.0 0.0
 -0.6036316752433777 0.8182613849639893 1.0 0.0 1.0 0.0
1.52 -0.284822940826416 0.10249869525432587 -0.006527150049805641 0.0021565088536590338 -0.5910272002220154 0.8222724199295044
 -0.006527150049805641 0.0021565088536590338 1.0 0.0 1.0 0.0
 -0.5910272002220154 0.8222724199295044 1.0 0.0 1.0 0.0
1.54 -0.277277410030365 0.11613748967647552 -0.006366506684571505 0.0017930903704836965 -0.5757350921630859 0.8284747004508972
 -0.006366506684571505 0.0017930903704836965 1.0 0.0 1.0 0.0
 -0.5757350921630859 0.8284747004508972 1.0 0.0 1.0 0.0
1.56 -0.2676904797554016 0.1334960013628006 -0.006151379551738501 0.0014744726940989494 -0.5581353306770325 0.8365727663040161
 -0.006151379551738501 0.0014744726940989494 1.0 0.0 1.0 0.0
 -0.5581353306770325 0.8365727663040161 1.0 0.0 1.0 0.0
1.58 -0.25617146492004395 0.15389664471149445 -0.005891452543437481 0.0011961532291024923 -0.5386078357696533 0.8462711572647095
 -0.005891452543437481 0.0011961532291024923 1.0 0.0 1.0 0.0
 -0.5386078357696533 0.8462711572647095 1.0 0.0 1.0 0.0
1.6 -0.2428298145532608 0.17666178941726685 -0.005596410948783159 0.0009536296711303294 -0.5175325274467468 0.8572743535041809
 -0.005596410948783159 0.0009536296711303294 1.0 0.0 1.0 0.0
 -0.5175325274467468 0.8572743535041809 1.0 0.0 1.0 0.0
1.62 -0.22777484357357025 0.20111380517482758 -0.005275938659906387 0.0007423993665724993 -0.4952894151210785 0.8692868947982788
 -0.005275938659906387 0.0007423993665724993 1.0 0.0 1.0 0.0
 -0.4952894151210785 0.8692868947982788 1.0 0.0 1.0 0.0
1.64 -0.21111592650413513 0.22657510638237 -0.0049397205002605915 0.0005579598364420235 -0.47225838899612427 0.8820133209228516
 -0.0049397205002605915 0.0005579598364420235 1.0 0.0 1.0 0.0
 -0.47225838899612427 0.8820133209228516 1.0 0.0 1.0 0.0
1.66 -0.19296245276927948 0.2523680627346039 -0.0045974403619766235 0.00039580860175192356 -0.44881942868232727 0.8951581716537476
 -0.0045974403619766235 0.00039580860175192356 1.0 0.0 1.0 0.0
 -0.44881942868232727 0.8951581716537476 1.0 0.0 1.0 0.0
1.68 -0.17342379689216614 0.277815043926239 -0.00425878306850791 0.0002514431544113904 -0.42535242438316345 0.9084259271621704
 -0.00425878306850791 0.0002514431544113904 1.0 0.0 1.0 0.0
 -0.42535242438316345 0.9084259271621704 1.0 0.0 1.0 0.0
1.7 -0.15260930359363556 0.30223846435546875 -0.003933432977646589 0.00012036099360557273 -0.4022373855113983 0.9215211272239685
 -0.003933432977646589 0.00012036099360557273 1.0 0.0 1.0 0.0
 -0.4022373855113983 0.9215211272239685 1.0 0.0 1.0 0.0
1.72 -0.13062836229801178 0.32496070861816406 -0.003631074447184801 -1.9403885289648315e-06 -0.3798542022705078 0.9341482520103455
 -0.003631074447184801 -1.9403885289648315e-06 1.0 0.0 1.0 0.0
 -0.3798542022705078 0.9341482520103455 1.0 0.0 1.0 0.0
1.74 -0.10759033262729645 0.34530413150787354 -0.003361392067745328 -0.00011996349348919466 -0.35858282446861267 0.9460119009017944
 -0.003361392067745328 -0.00011996349348919466 1.0 0.0 1.0 0.0
 -0.35858282446861267 0.9460119009017944 1.0 0.0 1.0 0.0
1.76 -0.08360674977302551 0.36260679364204407 -0.0031337908003479242 -0.00023804914962965995 -0.3387909233570099 0.9568243622779846
 -0.0031337908003479242 -0.00023804914962965995 1.0 0.0 1.0 0.0
 -0.3387909233570099 0.9568243622779846 1.0 0.0 1.0 0.0
1.78 -0.058838773518800735 0.3765668570995331 -0.0029512522742152214 -0.00035681939334608614 -0.32056355476379395 0.9664772152900696
 -0.0029512522742152214 -0.00035681939334608614 1.0 0.0 1.0 0.0
 -0.32056355476379395 0.9664772152900696 1.0 0.0 1.0 0.0
1.8 -0.03349719196557999 0.3872426450252533 -0.002810334088280797 -0.0004731775843538344 -0.3037030100822449 0.9750412702560425
 -0.002810334088280797 -0.0004731775843538344 1.0 0.0 1.0 0.0
 -0.3037030100822449 0.9750412702560425 1.0 0.0 1.0 0.0
1.82 -0.007794949691742659 0.3947080969810486 -0.0027073149103671312 -0.000583865272346884 -0.2879994511604309 0.9825951457023621
 -0.0027073149103671312 -0.000583865272346884 1.0 0.0 1.0 0.0
 -0.2879994511604309 0.9825951457023621 1.0 0.0 1.0 0.0
1.84 0.01805500127375126 0.3990372121334076 -0.0026384731754660606 -0.0006856241961941123 -0.2732429802417755 0.9892175197601318
 -0.0026384731754660606 -0.0006856241961941123 1.0 0.0 1.0 0.0
 -0.2732429802417755 0.9892175197601318 1.0 0.0 1.0 0.0
1.86 0.0438397154211998 0.4003039002418518 -0.0026000873185694218 -0.0007751958910375834 -0.2592236399650574 0.9949869513511658
 -0.0026000873185694218 -0.0007751958910375834 1.0 0.0 1.0 0.0
 -0.2592236399650574 0.9949869513511658 1.0 0.0 1.0 0.0
1.88 0.06934624910354614 0.3985821306705475 -0.002588435774669051 -0.0008493220084346831 -0.24573154747486115 0.9999821186065674
 -0.002588435774669051 -0.0008493220084346831 1.0 0.0 1.0 0.0
 -0.24573154747486115 0.9999821186065674 1.0 0.0 1.0 0.0
1.9 0.09436164051294327 0.3939459025859833 -0.0025997969787567854 -0.0009047441417351365 -0.2325568050146103 1.0042816400527954
 -0.0025997969787567854 -0.0009047441417351365 1.0 0.0 1.0 0.0
 -0.2325568050146103 1.0042816400527954 1.0 0.0 1.0 0.0
1.92 0.11867295950651169 0.38646915555000305 -0.0026304498314857483 -0.0009382040007039905 -0.21948948502540588 1.0079641342163086
 -0.0026304498314857483 -0.0009382040007039905 1.0 0.0 1.0 0.0
 -0.21948948502540588 1.0079641342163086 1.0 0.0 1.0 0.0
1.94 0.14206725358963013 0.3762258291244507 -0.002676672302186489 -0.000946443120483309 -0.20631970465183258 1.0111082792282104
 -0.002676672302186489 -0.000946443120483309 1.0 0.0 1.0 0.0
 -0.20631970465183258 1.0111082792282104 1.0 0.0 1.0 0.0
1.96 0.1643315553665161 0.3632899224758148 -0.002734743058681488 -0.0009262032108381391 -0.19283755123615265 1.013792634010315
 -0.002734743058681488 -0.0009262032108381391 1.0 0.0 1.0 0.0
 -0.19283755123615265 1.013792634010315 1.0 0.0 1.0 0.0
1.98 0.18525294959545135 0.34773537516593933 -0.0028009407687932253 -0.0008742258651182055 -0.17883311212062836 1.016095757484436
 -0.0028009407687932253 -0.0008742258651182055 1.0 0.0 1.0 0.0
 -0.17883311212062836 1.016095757484436 1.0 0.0 1.0 0.0
2.0 0.20461846888065338 0.3296361565589905 -0.0028715436346828938 -0.0007872526766732335 -0.16409647464752197 1.0180964469909668
 -0.0028715436346828938 -0.0007872526766732335 1.0 0.0 1.0 0.0
 -0.16409647464752197 1.0180964469909668 1.0 0.0 1.0 0.0
2.02 0.22225897014141083 0.3091113269329071 -0.0029434228781610727 -0.0006635785684920847 -0.1484682857990265 1.0198594331741333
 -0.0029434228781610727 -0.0006635785684920847 1.0 0.0 1.0 0.0
 -0.1484682857990265 1.0198594331741333 1.0 0.0 1.0 0.0
2.04 0.2381804883480072 0.2864605188369751 -0.0030158190056681633 -0.00050771125825122 -0.13199135661125183 1.0213943719863892
 -0.0030158190056681633 -0.00050771125825122 1.0 0.0 1.0 0.0
 -0.13199135661125183 1.0213943719863892 1.0 0.0 1.0 0.0
2.06 0.2524328827857971 0.26202842593193054 -0.0030885657761245966 -0.0003257118514738977 -0.11475899070501328 1.0226969718933105
 -0.0030885657761245966 -0.0003257118514738977 1.0 0.0 1.0 0.0
 -0.11475899070501328 1.0226969718933105 1.0 0.0 1.0 0.0
2.08 0.2650659680366516 0.2361597865819931 -0.003161496017128229 -0.00012364135181996971 -0.09686456620693207 1.0237632989883423
 -0.003161496017128229 -0.00012364135181996971 1.0 0.0 1.0 0.0
 -0.09686456620693207 1.0237632989883423 1.0 0.0 1.0 0.0
2.1 0.2761296331882477 0.20919930934906006 -0.0032344432547688484 9.243920067092404e-05 -0.07840140163898468 1.0245888233184814
